All calculations;Synchronous Machine;Synchronous Machine;Synchronous Machine;Synchronous Machine;Synchronous Machine;Synchronous Machine;Synchronous Machine(1);Synchronous Machine(1);Synchronous Machine(1);Synchronous Machine(1);Synchronous Machine(1);Synchronous Machine(1);Synchronous Machine(12);Synchronous Machine(12);Synchronous Machine(12);Synchronous Machine(12);Synchronous Machine(12);Synchronous Machine(12);Synchronous Machine(2);Synchronous Machine(2);Synchronous Machine(2);Synchronous Machine(2);Synchronous Machine(2);Synchronous Machine(2);Synchronous Machine(21);Synchronous Machine(21);Synchronous Machine(21);Synchronous Machine(21);Synchronous Machine(21);Synchronous Machine(21);Synchronous Machine(26);Synchronous Machine(26);Synchronous Machine(26);Synchronous Machine(26);Synchronous Machine(26);Synchronous Machine(26);Synchronous Machine(31);Synchronous Machine(31);Synchronous Machine(31);Synchronous Machine(31);Synchronous Machine(31);Synchronous Machine(31);Synchronous Machine(32);Synchronous Machine(32);Synchronous Machine(32);Synchronous Machine(32);Synchronous Machine(32);Synchronous Machine(32);Synchronous Machine(33);Synchronous Machine(33);Synchronous Machine(33);Synchronous Machine(33);Synchronous Machine(33);Synchronous Machine(33)
"b:tnow in s";"n:fehz:bus1 in Hz";"n:u1:bus1 in p.u.";"n:u1:bus1 in p.u.";"m:P:bus1 in MW";"s:firel in deg";"s:outofstep";"n:fehz:bus1 in Hz";"n:u1:bus1 in p.u.";"n:u1:bus1 in p.u.";"m:P:bus1 in MW";"s:firel in deg";"s:outofstep";"n:fehz:bus1 in Hz";"n:u1:bus1 in p.u.";"n:u1:bus1 in p.u.";"m:P:bus1 in MW";"s:firel in deg";"s:outofstep";"n:fehz:bus1 in Hz";"n:u1:bus1 in p.u.";"n:u1:bus1 in p.u.";"m:P:bus1 in MW";"s:firel in deg";"s:outofstep";"n:fehz:bus1 in Hz";"n:u1:bus1 in p.u.";"n:u1:bus1 in p.u.";"m:P:bus1 in MW";"s:firel in deg";"s:outofstep";"n:fehz:bus1 in Hz";"n:u1:bus1 in p.u.";"n:u1:bus1 in p.u.";"m:P:bus1 in MW";"s:firel in deg";"s:outofstep";"n:fehz:bus1 in Hz";"n:u1:bus1 in p.u.";"n:u1:bus1 in p.u.";"m:P:bus1 in MW";"s:firel in deg";"s:outofstep";"n:fehz:bus1 in Hz";"n:u1:bus1 in p.u.";"n:u1:bus1 in p.u.";"m:P:bus1 in MW";"s:firel in deg";"s:outofstep";"n:fehz:bus1 in Hz";"n:u1:bus1 in p.u.";"n:u1:bus1 in p.u.";"m:P:bus1 in MW";"s:firel in deg";"s:outofstep"
3,000000;50,000000;0,999422;0,999422;150,000000;28,797028;0,000000;50,000000;1,000000;1,000000;190,000000;15,422529;0,000000;50,000000;1,000000;1,000000;16,666666;3,756743;0,000000;50,000000;1,000000;1,000000;120,000000;18,509660;0,000000;50,000000;1,000000;1,000000;404,000000;43,662521;0,000000;50,000000;1,000000;1,000000;82,500000;52,494240;0,000000;50,000000;1,000000;1,000000;145,000000;25,473820;0,000000;50,000000;1,000000;1,000000;165,000000;19,743958;0,000000;50,000000;1,000000;1,000000;45,470751;0,000000;0,000000
3,010000;50,000000;0,999422;0,999422;150,000000;28,797028;0,000000;50,000000;1,000000;1,000000;190,000000;15,422529;0,000000;50,000000;1,000000;1,000000;16,666666;3,756743;0,000000;50,000000;1,000000;1,000000;120,000000;18,509660;0,000000;50,000000;1,000000;1,000000;404,000000;43,662521;0,000000;50,000000;1,000000;1,000000;82,500000;52,494240;0,000000;50,000000;1,000000;1,000000;145,000000;25,473820;0,000000;50,000000;1,000000;1,000000;165,000000;19,743958;0,000000;50,000000;1,000000;1,000000;45,470751;0,000000;0,000000
3,020000;50,000000;0,999422;0,999422;150,000000;28,797028;0,000000;50,000000;1,000000;1,000000;190,000000;15,422529;0,000000;50,000000;1,000000;1,000000;16,666666;3,756743;0,000000;50,000000;1,000000;1,000000;120,000000;18,509660;0,000000;50,000000;1,000000;1,000000;404,000000;43,662521;0,000000;50,000000;1,000000;1,000000;82,500000;52,494240;0,000000;50,000000;1,000000;1,000000;145,000000;25,473820;0,000000;50,000000;1,000000;1,000000;165,000000;19,743958;0,000000;50,000000;1,000000;1,000000;45,470751;0,000000;0,000000
3,030000;50,000000;0,999422;0,999422;150,000000;28,797028;0,000000;50,000000;1,000000;1,000000;190,000000;15,422529;0,000000;50,000000;1,000000;1,000000;16,666666;3,756743;0,000000;50,000000;1,000000;1,000000;120,000000;18,509660;0,000000;50,000000;1,000000;1,000000;404,000000;43,662521;0,000000;50,000000;1,000000;1,000000;82,500000;52,494240;0,000000;50,000000;1,000000;1,000000;145,000000;25,473820;0,000000;50,000000;1,000000;1,000000;165,000000;19,743958;0,000000;50,000000;1,000000;1,000000;45,470751;0,000000;0,000000
3,040000;50,000000;0,999422;0,999422;150,000000;28,797028;0,000000;50,000000;1,000000;1,000000;190,000000;15,422529;0,000000;50,000000;1,000000;1,000000;16,666666;3,756743;0,000000;50,000000;1,000000;1,000000;120,000000;18,509660;0,000000;50,000000;1,000000;1,000000;404,000000;43,662521;0,000000;50,000000;1,000000;1,000000;82,500000;52,494240;0,000000;50,000000;1,000000;1,000000;145,000000;25,473820;0,000000;50,000000;1,000000;1,000000;165,000000;19,743958;0,000000;50,000000;1,000000;1,000000;45,470751;0,000000;0,000000
3,050000;50,000000;0,999422;0,999422;150,000000;28,797028;0,000000;50,000000;1,000000;1,000000;190,000000;15,422529;0,000000;50,000000;1,000000;1,000000;16,666666;3,756743;0,000000;50,000000;1,000000;1,000000;120,000000;18,509660;0,000000;50,000000;1,000000;1,000000;404,000000;43,662521;0,000000;50,000000;1,000000;1,000000;82,500000;52,494240;0,000000;50,000000;1,000000;1,000000;145,000000;25,473820;0,000000;50,000000;1,000000;1,000000;165,000000;19,743958;0,000000;50,000000;1,000000;1,000000;45,470751;0,000000;0,000000
3,060000;50,000000;0,999422;0,999422;150,000000;28,797028;0,000000;50,000000;1,000000;1,000000;190,000000;15,422529;0,000000;50,000000;1,000000;1,000000;16,666666;3,756743;0,000000;50,000000;1,000000;1,000000;120,000000;18,509660;0,000000;50,000000;1,000000;1,000000;404,000000;43,662521;0,000000;50,000000;1,000000;1,000000;82,500000;52,494240;0,000000;50,000000;1,000000;1,000000;145,000000;25,473820;0,000000;50,000000;1,000000;1,000000;165,000000;19,743958;0,000000;50,000000;1,000000;1,000000;45,470751;0,000000;0,000000
3,070000;50,000000;0,999422;0,999422;150,000000;28,797028;0,000000;50,000000;1,000000;1,000000;190,000000;15,422529;0,000000;50,000000;1,000000;1,000000;16,666666;3,756743;0,000000;50,000000;1,000000;1,000000;120,000000;18,509660;0,000000;50,000000;1,000000;1,000000;404,000000;43,662521;0,000000;50,000000;1,000000;1,000000;82,500000;52,494240;0,000000;50,000000;1,000000;1,000000;145,000000;25,473820;0,000000;50,000000;1,000000;1,000000;165,000000;19,743958;0,000000;50,000000;1,000000;1,000000;45,470751;0,000000;0,000000
3,080000;50,000000;0,999422;0,999422;150,000000;28,797028;0,000000;50,000000;1,000000;1,000000;190,000000;15,422529;0,000000;50,000000;1,000000;1,000000;16,666666;3,756743;0,000000;50,000000;1,000000;1,000000;120,000000;18,509660;0,000000;50,000000;1,000000;1,000000;404,000000;43,662521;0,000000;50,000000;1,000000;1,000000;82,500000;52,494240;0,000000;50,000000;1,000000;1,000000;145,000000;25,473820;0,000000;50,000000;1,000000;1,000000;165,000000;19,743958;0,000000;50,000000;1,000000;1,000000;45,470751;0,000000;0,000000
3,090000;50,000000;0,999422;0,999422;150,000000;28,797028;0,000000;50,000000;1,000000;1,000000;190,000000;15,422529;0,000000;50,000000;1,000000;1,000000;16,666666;3,756743;0,000000;50,000000;1,000000;1,000000;120,000000;18,509660;0,000000;50,000000;1,000000;1,000000;404,000000;43,662521;0,000000;50,000000;1,000000;1,000000;82,500000;52,494240;0,000000;50,000000;1,000000;1,000000;145,000000;25,473820;0,000000;50,000000;1,000000;1,000000;165,000000;19,743958;0,000000;50,000000;1,000000;1,000000;45,470751;0,000000;0,000000
3,100000;50,000000;0,999422;0,999422;150,000000;28,797028;0,000000;50,000000;1,000000;1,000000;190,000000;15,422529;0,000000;50,000000;1,000000;1,000000;16,666666;3,756743;0,000000;50,000000;1,000000;1,000000;120,000000;18,509660;0,000000;50,000000;1,000000;1,000000;404,000000;43,662521;0,000000;50,000000;1,000000;1,000000;82,500000;52,494240;0,000000;50,000000;1,000000;1,000000;145,000000;25,473820;0,000000;50,000000;1,000000;1,000000;165,000000;19,743958;0,000000;50,000000;1,000000;1,000000;45,470751;0,000000;0,000000
3,110000;50,000000;0,999422;0,999422;150,000000;28,797028;0,000000;50,000000;1,000000;1,000000;190,000000;15,422529;0,000000;50,000000;1,000000;1,000000;16,666666;3,756743;0,000000;50,000000;1,000000;1,000000;120,000000;18,509660;0,000000;50,000000;1,000000;1,000000;404,000000;43,662521;0,000000;50,000000;1,000000;1,000000;82,500000;52,494240;0,000000;50,000000;1,000000;1,000000;145,000000;25,473820;0,000000;50,000000;1,000000;1,000000;165,000000;19,743958;0,000000;50,000000;1,000000;1,000000;45,470751;0,000000;0,000000
3,120000;50,000000;0,999422;0,999422;150,000000;28,797028;0,000000;50,000000;1,000000;1,000000;190,000000;15,422529;0,000000;50,000000;1,000000;1,000000;16,666666;3,756743;0,000000;50,000000;1,000000;1,000000;120,000000;18,509660;0,000000;50,000000;1,000000;1,000000;404,000000;43,662521;0,000000;50,000000;1,000000;1,000000;82,500000;52,494240;0,000000;50,000000;1,000000;1,000000;145,000000;25,473820;0,000000;50,000000;1,000000;1,000000;165,000000;19,743958;0,000000;50,000000;1,000000;1,000000;45,470751;0,000000;0,000000
3,130000;50,000000;0,999422;0,999422;150,000000;28,797028;0,000000;50,000000;1,000000;1,000000;190,000000;15,422529;0,000000;50,000000;1,000000;1,000000;16,666666;3,756743;0,000000;50,000000;1,000000;1,000000;120,000000;18,509660;0,000000;50,000000;1,000000;1,000000;404,000000;43,662521;0,000000;50,000000;1,000000;1,000000;82,500000;52,494240;0,000000;50,000000;1,000000;1,000000;145,000000;25,473820;0,000000;50,000000;1,000000;1,000000;165,000000;19,743958;0,000000;50,000000;1,000000;1,000000;45,470751;0,000000;0,000000
3,140000;50,000000;0,999422;0,999422;150,000000;28,797028;0,000000;50,000000;1,000000;1,000000;190,000000;15,422529;0,000000;50,000000;1,000000;1,000000;16,666666;3,756743;0,000000;50,000000;1,000000;1,000000;120,000000;18,509660;0,000000;50,000000;1,000000;1,000000;404,000000;43,662521;0,000000;50,000000;1,000000;1,000000;82,500000;52,494240;0,000000;50,000000;1,000000;1,000000;145,000000;25,473820;0,000000;50,000000;1,000000;1,000000;165,000000;19,743958;0,000000;50,000000;1,000000;1,000000;45,470751;0,000000;0,000000
3,150000;50,000000;0,999422;0,999422;150,000000;28,797028;0,000000;50,000000;1,000000;1,000000;190,000000;15,422529;0,000000;50,000000;1,000000;1,000000;16,666666;3,756743;0,000000;50,000000;1,000000;1,000000;120,000000;18,509660;0,000000;50,000000;1,000000;1,000000;404,000000;43,662521;0,000000;50,000000;1,000000;1,000000;82,500000;52,494240;0,000000;50,000000;1,000000;1,000000;145,000000;25,473820;0,000000;50,000000;1,000000;1,000000;165,000000;19,743958;0,000000;50,000000;1,000000;1,000000;45,470751;0,000000;0,000000
3,160000;50,000000;0,999422;0,999422;150,000000;28,797028;0,000000;50,000000;1,000000;1,000000;190,000000;15,422529;0,000000;50,000000;1,000000;1,000000;16,666666;3,756743;0,000000;50,000000;1,000000;1,000000;120,000000;18,509660;0,000000;50,000000;1,000000;1,000000;404,000000;43,662521;0,000000;50,000000;1,000000;1,000000;82,500000;52,494240;0,000000;50,000000;1,000000;1,000000;145,000000;25,473820;0,000000;50,000000;1,000000;1,000000;165,000000;19,743958;0,000000;50,000000;1,000000;1,000000;45,470751;0,000000;0,000000
3,170000;50,000000;0,999422;0,999422;150,000000;28,797028;0,000000;50,000000;1,000000;1,000000;190,000000;15,422529;0,000000;50,000000;1,000000;1,000000;16,666666;3,756743;0,000000;50,000000;1,000000;1,000000;120,000000;18,509660;0,000000;50,000000;1,000000;1,000000;404,000000;43,662521;0,000000;50,000000;1,000000;1,000000;82,500000;52,494240;0,000000;50,000000;1,000000;1,000000;145,000000;25,473820;0,000000;50,000000;1,000000;1,000000;165,000000;19,743958;0,000000;50,000000;1,000000;1,000000;45,470751;0,000000;0,000000
3,180000;50,000000;0,999422;0,999422;150,000000;28,797028;0,000000;50,000000;1,000000;1,000000;190,000000;15,422529;0,000000;50,000000;1,000000;1,000000;16,666666;3,756743;0,000000;50,000000;1,000000;1,000000;120,000000;18,509660;0,000000;50,000000;1,000000;1,000000;404,000000;43,662521;0,000000;50,000000;1,000000;1,000000;82,500000;52,494240;0,000000;50,000000;1,000000;1,000000;145,000000;25,473820;0,000000;50,000000;1,000000;1,000000;165,000000;19,743958;0,000000;50,000000;1,000000;1,000000;45,470751;0,000000;0,000000
3,190000;50,000000;0,999422;0,999422;150,000000;28,797028;0,000000;50,000000;1,000000;1,000000;190,000000;15,422529;0,000000;50,000000;1,000000;1,000000;16,666666;3,756743;0,000000;50,000000;1,000000;1,000000;120,000000;18,509660;0,000000;50,000000;1,000000;1,000000;404,000000;43,662521;0,000000;50,000000;1,000000;1,000000;82,500000;52,494240;0,000000;50,000000;1,000000;1,000000;145,000000;25,473820;0,000000;50,000000;1,000000;1,000000;165,000000;19,743958;0,000000;50,000000;1,000000;1,000000;45,470751;0,000000;0,000000
3,200000;50,000000;0,999422;0,999422;150,000000;28,797028;0,000000;50,000000;1,000000;1,000000;190,000000;15,422529;0,000000;50,000000;1,000000;1,000000;16,666666;3,756743;0,000000;50,000000;1,000000;1,000000;120,000000;18,509660;0,000000;50,000000;1,000000;1,000000;404,000000;43,662521;0,000000;50,000000;1,000000;1,000000;82,500000;52,494240;0,000000;50,000000;1,000000;1,000000;145,000000;25,473820;0,000000;50,000000;1,000000;1,000000;165,000000;19,743958;0,000000;50,000000;1,000000;1,000000;45,470751;0,000000;0,000000
3,210000;50,000000;0,999422;0,999422;150,000000;28,797028;0,000000;50,000000;1,000000;1,000000;190,000000;15,422529;0,000000;50,000000;1,000000;1,000000;16,666666;3,756743;0,000000;50,000000;1,000000;1,000000;120,000000;18,509660;0,000000;50,000000;1,000000;1,000000;404,000000;43,662521;0,000000;50,000000;1,000000;1,000000;82,500000;52,494240;0,000000;50,000000;1,000000;1,000000;145,000000;25,473820;0,000000;50,000000;1,000000;1,000000;165,000000;19,743958;0,000000;50,000000;1,000000;1,000000;45,470751;0,000000;0,000000
3,220000;50,000000;0,999422;0,999422;150,000000;28,797028;0,000000;50,000000;1,000000;1,000000;190,000000;15,422529;0,000000;50,000000;1,000000;1,000000;16,666666;3,756743;0,000000;50,000000;1,000000;1,000000;120,000000;18,509660;0,000000;50,000000;1,000000;1,000000;404,000000;43,662521;0,000000;50,000000;1,000000;1,000000;82,500000;52,494240;0,000000;50,000000;1,000000;1,000000;145,000000;25,473820;0,000000;50,000000;1,000000;1,000000;165,000000;19,743958;0,000000;50,000000;1,000000;1,000000;45,470751;0,000000;0,000000
3,230000;50,000000;0,999422;0,999422;150,000000;28,797028;0,000000;50,000000;1,000000;1,000000;190,000000;15,422529;0,000000;50,000000;1,000000;1,000000;16,666666;3,756743;0,000000;50,000000;1,000000;1,000000;120,000000;18,509660;0,000000;50,000000;1,000000;1,000000;404,000000;43,662521;0,000000;50,000000;1,000000;1,000000;82,500000;52,494240;0,000000;50,000000;1,000000;1,000000;145,000000;25,473820;0,000000;50,000000;1,000000;1,000000;165,000000;19,743958;0,000000;50,000000;1,000000;1,000000;45,470751;0,000000;0,000000
3,240000;50,000000;0,999422;0,999422;150,000000;28,797028;0,000000;50,000000;1,000000;1,000000;190,000000;15,422529;0,000000;50,000000;1,000000;1,000000;16,666666;3,756743;0,000000;50,000000;1,000000;1,000000;120,000000;18,509660;0,000000;50,000000;1,000000;1,000000;404,000000;43,662521;0,000000;50,000000;1,000000;1,000000;82,500000;52,494240;0,000000;50,000000;1,000000;1,000000;145,000000;25,473820;0,000000;50,000000;1,000000;1,000000;165,000000;19,743958;0,000000;50,000000;1,000000;1,000000;45,470751;0,000000;0,000000
3,250000;50,000000;0,999422;0,999422;150,000000;28,797028;0,000000;50,000000;1,000000;1,000000;190,000000;15,422529;0,000000;50,000000;1,000000;1,000000;16,666666;3,756743;0,000000;50,000000;1,000000;1,000000;120,000000;18,509660;0,000000;50,000000;1,000000;1,000000;404,000000;43,662521;0,000000;50,000000;1,000000;1,000000;82,500000;52,494240;0,000000;50,000000;1,000000;1,000000;145,000000;25,473820;0,000000;50,000000;1,000000;1,000000;165,000000;19,743958;0,000000;50,000000;1,000000;1,000000;45,470751;0,000000;0,000000
3,260000;50,000000;0,999422;0,999422;150,000000;28,797028;0,000000;50,000000;1,000000;1,000000;190,000000;15,422529;0,000000;50,000000;1,000000;1,000000;16,666666;3,756743;0,000000;50,000000;1,000000;1,000000;120,000000;18,509660;0,000000;50,000000;1,000000;1,000000;404,000000;43,662521;0,000000;50,000000;1,000000;1,000000;82,500000;52,494240;0,000000;50,000000;1,000000;1,000000;145,000000;25,473820;0,000000;50,000000;1,000000;1,000000;165,000000;19,743958;0,000000;50,000000;1,000000;1,000000;45,470751;0,000000;0,000000
3,270000;50,000000;0,999422;0,999422;150,000000;28,797028;0,000000;50,000000;1,000000;1,000000;190,000000;15,422529;0,000000;50,000000;1,000000;1,000000;16,666666;3,756743;0,000000;50,000000;1,000000;1,000000;120,000000;18,509660;0,000000;50,000000;1,000000;1,000000;404,000000;43,662521;0,000000;50,000000;1,000000;1,000000;82,500000;52,494240;0,000000;50,000000;1,000000;1,000000;145,000000;25,473820;0,000000;50,000000;1,000000;1,000000;165,000000;19,743958;0,000000;50,000000;1,000000;1,000000;45,470751;0,000000;0,000000
3,280000;50,000000;0,999422;0,999422;150,000000;28,797028;0,000000;50,000000;1,000000;1,000000;190,000000;15,422529;0,000000;50,000000;1,000000;1,000000;16,666666;3,756743;0,000000;50,000000;1,000000;1,000000;120,000000;18,509660;0,000000;50,000000;1,000000;1,000000;404,000000;43,662521;0,000000;50,000000;1,000000;1,000000;82,500000;52,494240;0,000000;50,000000;1,000000;1,000000;145,000000;25,473820;0,000000;50,000000;1,000000;1,000000;165,000000;19,743958;0,000000;50,000000;1,000000;1,000000;45,470751;0,000000;0,000000
3,290000;50,000000;0,999422;0,999422;150,000000;28,797028;0,000000;50,000000;1,000000;1,000000;190,000000;15,422529;0,000000;50,000000;1,000000;1,000000;16,666666;3,756743;0,000000;50,000000;1,000000;1,000000;120,000000;18,509660;0,000000;50,000000;1,000000;1,000000;404,000000;43,662521;0,000000;50,000000;1,000000;1,000000;82,500000;52,494240;0,000000;50,000000;1,000000;1,000000;145,000000;25,473820;0,000000;50,000000;1,000000;1,000000;165,000000;19,743958;0,000000;50,000000;1,000000;1,000000;45,470751;0,000000;0,000000
3,300000;50,000000;0,999422;0,999422;150,000000;28,797028;0,000000;50,000000;1,000000;1,000000;190,000000;15,422529;0,000000;50,000000;1,000000;1,000000;16,666666;3,756743;0,000000;50,000000;1,000000;1,000000;120,000000;18,509660;0,000000;50,000000;1,000000;1,000000;404,000000;43,662521;0,000000;50,000000;1,000000;1,000000;82,500000;52,494240;0,000000;50,000000;1,000000;1,000000;145,000000;25,473820;0,000000;50,000000;1,000000;1,000000;165,000000;19,743958;0,000000;50,000000;1,000000;1,000000;45,470751;0,000000;0,000000
3,310000;50,000000;0,999422;0,999422;150,000000;28,797028;0,000000;50,000000;1,000000;1,000000;190,000000;15,422529;0,000000;50,000000;1,000000;1,000000;16,666666;3,756743;0,000000;50,000000;1,000000;1,000000;120,000000;18,509660;0,000000;50,000000;1,000000;1,000000;404,000000;43,662521;0,000000;50,000000;1,000000;1,000000;82,500000;52,494240;0,000000;50,000000;1,000000;1,000000;145,000000;25,473820;0,000000;50,000000;1,000000;1,000000;165,000000;19,743958;0,000000;50,000000;1,000000;1,000000;45,470751;0,000000;0,000000
3,320000;50,000000;0,999422;0,999422;150,000000;28,797028;0,000000;50,000000;1,000000;1,000000;190,000000;15,422529;0,000000;50,000000;1,000000;1,000000;16,666666;3,756743;0,000000;50,000000;1,000000;1,000000;120,000000;18,509660;0,000000;50,000000;1,000000;1,000000;404,000000;43,662521;0,000000;50,000000;1,000000;1,000000;82,500000;52,494240;0,000000;50,000000;1,000000;1,000000;145,000000;25,473820;0,000000;50,000000;1,000000;1,000000;165,000000;19,743958;0,000000;50,000000;1,000000;1,000000;45,470751;0,000000;0,000000
